T7B18 17527:017.472   SEGGER J-Link V8.96 Log File
T7B18 17527:017.472   DLL Compiled: Dec 18 2025 16:46:38
T7B18 17527:017.472   Logging started @ 2026-01-05 10:55
T7B18 17527:017.472   Process: C:\Keil_v5\UV4\UV4.exe
T7B18 17527:017.472 - 9040.752ms 
T7B18 17527:017.472 JLINK_SetWarnOutHandler(...)
T7B18 17527:017.472 - 0.004ms 
T7B18 17527:017.472 JLINK_OpenEx(...)
T7B18 17527:019.520   Firmware: J-Link V9 compiled May  7 2021 16:26:12
T7B18 17527:019.520   Firmware: J-Link V9 compiled May  7 2021 16:26:12
T7B18 17527:021.568   Decompressing FW timestamp took 92 us
T7B18 17527:025.664   Hardware: V9.40
T7B18 17527:025.664   S/N: 69406349
T7B18 17527:025.664   OEM: SEGGER
T7B18 17527:025.664   Feature(s): RDI, FlashBP, FlashDL, JFlash, GDB
T7B18 17527:025.664   Bootloader: (FW returned invalid version)
T7B18 17527:027.712   TELNET listener socket opened on port 19021
T7B18 17527:035.904   WEBSRV WEBSRV_Init(): Starting webserver thread(s)
T7B18 17527:035.904   WEBSRV Webserver running on local port 19080
T7B18 17527:037.952   Looking for J-Link GUI Server exe at: C:\Keil_v5\ARM\Segger\JLinkGUIServer.exe
T7B18 17527:037.952   Looking for J-Link GUI Server exe at: C:\Program Files\SEGGER\JLink_V896\JLinkGUIServer.exe
T7B18 17527:037.952   Forking J-Link GUI Server: C:\Program Files\SEGGER\JLink_V896\JLinkGUIServer.exe
T7B18 17527:060.480   J-Link GUI Server info: "J-Link GUI server V8.96 "
T7B18 17527:060.480 - 44.661ms returns "O.K."
T7B18 17527:060.480 JLINK_GetEmuCaps()
T7B18 17527:060.480 - 0.012ms returns 0xB9FF7BBF
T7B18 17527:060.480 JLINK_TIF_GetAvailable(...)
T7B18 17527:062.528 - 0.133ms 
T7B18 17527:062.528 JLINK_SetErrorOutHandler(...)
T7B18 17527:062.528 - 0.004ms 
T7B18 17527:062.528 JLINK_ExecCommand("ProjectFile = "C:\Users\huyan\Desktop\offline OBC\openloop\OBC_openloop\0917\JLinkSettings.ini"", ...). 
T7B18 17527:064.576 - 2.012ms returns 0x00
T7B18 17527:064.576 JLINK_ExecCommand("Device = GD32F303RE", ...). 
T7B18 17527:064.576   Flash bank @ 0x1FFFF800: SFL: Parsing sectorization info from ELF file
T7B18 17527:064.576     FlashDevice.SectorInfo[0]: .SectorSize = 0x00000010, .SectorStartAddr = 0x00000000
T7B18 17527:064.576   Device "GD32F303RET6" selected.
T7B18 17527:064.576 - 0.411ms returns 0x00
T7B18 17527:064.576 JLINK_ExecCommand("DisableConnectionTimeout", ...). 
T7B18 17527:064.576   ERROR: Unknown command
T7B18 17527:064.576 - 0.007ms returns 0x01
T7B18 17527:064.576 JLINK_GetHardwareVersion()
T7B18 17527:064.576 - 0.004ms returns 94000
T7B18 17527:064.576 JLINK_GetDLLVersion()
T7B18 17527:064.576 - 0.003ms returns 89600
T7B18 17527:064.576 JLINK_GetOEMString(...)
T7B18 17527:064.576 JLINK_GetFirmwareString(...)
T7B18 17527:064.576 - 0.004ms 
T7B18 17527:064.576 JLINK_GetDLLVersion()
T7B18 17527:064.576 - 0.004ms returns 89600
T7B18 17527:064.576 JLINK_GetCompileDateTime()
T7B18 17527:064.576 - 0.003ms 
T7B18 17527:064.576 JLINK_GetFirmwareString(...)
T7B18 17527:064.576 - 0.004ms 
T7B18 17527:064.576 JLINK_GetHardwareVersion()
T7B18 17527:064.576 - 0.003ms returns 94000
T7B18 17527:064.576 JLINK_GetSN()
T7B18 17527:064.576 - 0.003ms returns 69406349
T7B18 17527:064.576 JLINK_GetOEMString(...)
T7B18 17527:064.576 JLINK_TIF_Select(JLINKARM_TIF_SWD)
T7B18 17527:064.576 - 0.466ms returns 0x00
T7B18 17527:064.576 JLINK_HasError()
T7B18 17527:064.576 JLINK_SetSpeed(1000)
T7B18 17527:064.576 - 0.065ms 
T7B18 17527:064.576 JLINK_GetId()
T7B18 17527:066.624   InitTarget() start
T7B18 17527:066.624    J-Link Script File: Executing InitTarget()
T7B18 17527:066.624   SWD selected. Executing JTAG -> SWD switching sequence.
T7B18 17527:066.624     No Protection is set.
T7B18 17527:066.624   InitTarget() end - Took 2.89ms
T7B18 17527:068.672   Found SW-DP with ID 0x2BA01477
T7B18 17527:070.720   DPIDR: 0x2BA01477
T7B18 17527:070.720   CoreSight SoC-400 or earlier
T7B18 17527:070.720   Scanning AP map to find all available APs
T7B18 17527:072.768   AP[1]: Stopped AP scan as end of AP map has been reached
T7B18 17527:072.768   AP[0]: AHB-AP (IDR: 0x24770011, ADDR: 0x00000000)
T7B18 17527:072.768   Iterating through AP map to find AHB-AP to use
T7B18 17527:074.816   AP[0]: Core found
T7B18 17527:074.816   AP[0]: AHB-AP ROM base: 0xE00FF000
T7B18 17527:074.816   CPUID register: 0x410FC241. Implementer code: 0x41 (ARM)
T7B18 17527:074.816   Found Cortex-M4 r0p1, Little endian.
T7B18 17527:074.816   -- Max. mem block: 0x00010E40
T7B18 17527:074.816   CPU_ReadMem(4 bytes @ 0xE000EDF0)
T7B18 17527:074.816   CPU_WriteMem(4 bytes @ 0xE000EDF0)
T7B18 17527:074.816   CPU_ReadMem(4 bytes @ 0xE0002000)
T7B18 17527:074.816   FPUnit: 6 code (BP) slots and 2 literal slots
T7B18 17527:074.816   CPU_ReadMem(4 bytes @ 0xE000EDFC)
T7B18 17527:076.864   CPU_WriteMem(4 bytes @ 0xE000EDFC)
T7B18 17527:076.864   CPU_ReadMem(4 bytes @ 0xE0001000)
T7B18 17527:076.864   CPU_WriteMem(4 bytes @ 0xE0001000)
T7B18 17527:076.864   CPU_ReadMem(4 bytes @ 0xE000ED88)
T7B18 17527:078.912   CPU_WriteMem(4 bytes @ 0xE000ED88)
T7B18 17527:078.912   CPU_ReadMem(4 bytes @ 0xE000ED88)
T7B18 17527:078.912   CPU_WriteMem(4 bytes @ 0xE000ED88)
T7B18 17527:080.960   CoreSight components:
T7B18 17527:080.960   ROMTbl[0] @ E00FF000
T7B18 17527:080.960   CPU_ReadMem(64 bytes @ 0xE00FF000)
T7B18 17527:080.960   CPU_ReadMem(32 bytes @ 0xE000EFE0)
T7B18 17527:083.008   [0][0]: E000E000 CID B105E00D PID 000BB00C SCS-M7
T7B18 17527:083.008   CPU_ReadMem(32 bytes @ 0xE0001FE0)
T7B18 17527:083.008   [0][1]: E0001000 CID B105E00D PID 003BB002 DWT
T7B18 17527:083.008   CPU_ReadMem(32 bytes @ 0xE0002FE0)
T7B18 17527:083.008   [0][2]: E0002000 CID B105E00D PID 002BB003 FPB
T7B18 17527:083.008   CPU_ReadMem(32 bytes @ 0xE0000FE0)
T7B18 17527:085.056   [0][3]: E0000000 CID B105E00D PID 003BB001 ITM
T7B18 17527:085.056   CPU_ReadMem(32 bytes @ 0xE0040FE0)
T7B18 17527:085.056   [0][4]: E0040000 CID B105900D PID 000BB9A1 TPIU
T7B18 17527:085.056   CPU_ReadMem(32 bytes @ 0xE0041FE0)
T7B18 17527:087.104   [0][5]: E0041000 CID 00000000 PID 00000000 ???
T7B18 17527:087.104 - 21.947ms returns 0x2BA01477
T7B18 17527:087.104 JLINK_GetDLLVersion()
T7B18 17527:087.104 - 0.005ms returns 89600
T7B18 17527:087.104 JLINK_CORE_GetFound()
T7B18 17527:087.104 - 0.005ms returns 0xE0000FF
T7B18 17527:087.104 JLINK_GetDebugInfo(0x100 = JLINKARM_ROM_TABLE_ADDR_INDEX)
T7B18 17527:087.104   Value=0xE00FF000
T7B18 17527:087.104 - 0.013ms returns 0
T7B18 17527:087.104 JLINK_GetDebugInfo(0x100 = JLINKARM_ROM_TABLE_ADDR_INDEX)
T7B18 17527:087.104   Value=0xE00FF000
T7B18 17527:087.104 - 0.012ms returns 0
T7B18 17527:087.104 JLINK_GetDebugInfo(0x101 = JLINKARM_DEBUG_INFO_ETM_ADDR_INDEX)
T7B18 17527:087.104   Value=0x00000000
T7B18 17527:087.104 - 0.012ms returns 0
T7B18 17527:087.104 JLINK_ReadMemEx(0xE0041FF0, 0x10 Bytes, Flags = 0x02000004)
T7B18 17527:087.104   CPU_ReadMem(16 bytes @ 0xE0041FF0)
T7B18 17527:087.104   Data:  00 00 00 00 00 00 00 00 00 00 00 00 00 00 00 00
T7B18 17527:087.104 - 0.627ms returns 16 (0x10)
T7B18 17527:087.104 JLINK_GetDebugInfo(0x102 = JLINKARM_DEBUG_INFO_MTB_ADDR_INDEX)
T7B18 17527:087.104   Value=0x00000000
T7B18 17527:087.104 - 0.013ms returns 0
T7B18 17527:087.104 JLINK_GetDebugInfo(0x103 = JLINKARM_DEBUG_INFO_TPIU_ADDR_INDEX)
T7B18 17527:087.104   Value=0xE0040000
T7B18 17527:087.104 - 0.027ms returns 0
T7B18 17527:087.104 JLINK_GetDebugInfo(0x104 = JLINKARM_DEBUG_INFO_ITM_ADDR_INDEX)
T7B18 17527:087.104   Value=0xE0000000
T7B18 17527:087.104 - 0.013ms returns 0
T7B18 17527:087.104 JLINK_GetDebugInfo(0x105 = JLINKARM_DEBUG_INFO_DWT_ADDR_INDEX)
T7B18 17527:087.104   Value=0xE0001000
T7B18 17527:087.104 - 0.012ms returns 0
T7B18 17527:087.104 JLINK_GetDebugInfo(0x106 = JLINKARM_DEBUG_INFO_FPB_ADDR_INDEX)
T7B18 17527:087.104   Value=0xE0002000
T7B18 17527:087.104 - 0.012ms returns 0
T7B18 17527:087.104 JLINK_GetDebugInfo(0x107 = JLINKARM_DEBUG_INFO_NVIC_ADDR_INDEX)
T7B18 17527:087.104   Value=0xE000E000
T7B18 17527:087.104 - 0.012ms returns 0
T7B18 17527:087.104 JLINK_GetDebugInfo(0x10C = JLINKARM_DEBUG_INFO_DBG_ADDR_INDEX)
T7B18 17527:087.104   Value=0xE000EDF0
T7B18 17527:087.104 - 0.016ms returns 0
T7B18 17527:087.104 JLINK_GetDebugInfo(0x01 = Unknown)
T7B18 17527:087.104   Value=0x00000001
T7B18 17527:087.104 - 0.012ms returns 0
T7B18 17527:087.104 JLINK_ReadMemU32(0xE000ED00, 0x1 Items)
T7B18 17527:087.104   CPU_ReadMem(4 bytes @ 0xE000ED00)
T7B18 17527:089.152   Data:  41 C2 0F 41
T7B18 17527:089.152   Debug reg: CPUID
T7B18 17527:089.152 - 0.485ms returns 1 (0x1)
T7B18 17527:089.152 JLINK_GetDebugInfo(0x10F = JLINKARM_DEBUG_INFO_HAS_CORTEX_M_SECURITY_EXT_INDEX)
T7B18 17527:089.152   Value=0x00000000
T7B18 17527:089.152 - 0.014ms returns 0
T7B18 17527:089.152 JLINK_HasError()
T7B18 17527:089.152 JLINK_SetResetType(JLINKARM_CM3_RESET_TYPE_NORMAL)
T7B18 17527:089.152 - 0.006ms returns JLINKARM_CM3_RESET_TYPE_NORMAL
T7B18 17527:089.152 JLINK_Reset()
T7B18 17527:089.152   JLINK_GetResetTypeDesc
T7B18 17527:089.152   - 0.005ms 
T7B18 17527:089.152   Reset type: NORMAL (https://kb.segger.com/J-Link_Reset_Strategies)
T7B18 17527:089.152   CPU is running
T7B18 17527:089.152   CPU_WriteMem(4 bytes @ 0xE000EDF0)
T7B18 17527:089.152   CPU is running
T7B18 17527:089.152   CPU_WriteMem(4 bytes @ 0xE000EDFC)
T7B18 17527:089.152   Reset: Halt core after reset via DEMCR.VC_CORERESET.
T7B18 17527:091.200   Reset: Reset device via AIRCR.SYSRESETREQ.
T7B18 17527:091.200   CPU is running
T7B18 17527:091.200   CPU_WriteMem(4 bytes @ 0xE000ED0C)
T7B18 17527:142.400   CPU_ReadMem(4 bytes @ 0xE000EDF0)
T7B18 17527:144.448   CPU_ReadMem(4 bytes @ 0xE000EDF0)
T7B18 17527:148.544   CPU_WriteMem(4 bytes @ 0xE000EDFC)
T7B18 17527:156.736   CPU_ReadMem(4 bytes @ 0xE000EDF0)
T7B18 17527:162.880   CPU_WriteMem(4 bytes @ 0xE0002000)
T7B18 17527:164.928   CPU_ReadMem(4 bytes @ 0xE000EDFC)
T7B18 17527:164.928   CPU_ReadMem(4 bytes @ 0xE0001000)
T7B18 17527:164.928 - 76.801ms 
T7B18 17527:164.928 JLINK_HasError()
T7B18 17527:164.928 JLINK_ReadReg(R15 (PC))
T7B18 17527:164.928 - 0.015ms returns 0x08000144
T7B18 17527:164.928 JLINK_ReadReg(XPSR)
T7B18 17527:164.928 - 0.009ms returns 0x01000000
T7B18 17527:164.928 JLINK_Halt()
T7B18 17527:164.928 - 0.009ms returns 0x00
T7B18 17527:164.928 JLINK_ReadMemU32(0xE000EDF0, 0x1 Items)
T7B18 17527:164.928   CPU_ReadMem(4 bytes @ 0xE000EDF0)
T7B18 17527:164.928   Data:  03 00 03 00
T7B18 17527:164.928   Debug reg: DHCSR
T7B18 17527:164.928 - 0.666ms returns 1 (0x1)
T7B18 17527:164.928 JLINK_WriteU32(0xE000EDF0, 0xA05F0003)
T7B18 17527:164.928   Debug reg: DHCSR
T7B18 17527:166.976   CPU_WriteMem(4 bytes @ 0xE000EDF0)
T7B18 17527:166.976 - 1.246ms returns 0 (0x00000000)
T7B18 17527:166.976 JLINK_WriteU32(0xE000EDFC, 0x01000000)
T7B18 17527:166.976   Debug reg: DEMCR
T7B18 17527:166.976   CPU_WriteMem(4 bytes @ 0xE000EDFC)
T7B18 17527:166.976 - 0.542ms returns 0 (0x00000000)
T7B18 17527:166.976 JLINK_GetHWStatus(...)
T7B18 17527:166.976 - 0.144ms returns 0
T7B18 17527:166.976 JLINK_GetNumBPUnits(Type = 0xFFFFFF00)
T7B18 17527:166.976 - 0.010ms returns 0x06
T7B18 17527:166.976 JLINK_GetNumBPUnits(Type = 0xF0)
T7B18 17527:166.976 - 0.008ms returns 0x2000
T7B18 17527:166.976 JLINK_GetNumWPUnits()
T7B18 17527:166.976 - 0.008ms returns 4
T7B18 17527:169.024 JLINK_GetSpeed()
T7B18 17527:169.024 - 0.009ms returns 1000
T7B18 17527:169.024 JLINK_ReadMemU32(0xE000E004, 0x1 Items)
T7B18 17527:169.024   CPU_ReadMem(4 bytes @ 0xE000E004)
T7B18 17527:169.024   Data:  02 00 00 00
T7B18 17527:169.024 - 0.662ms returns 1 (0x1)
T7B18 17527:169.024 JLINK_ReadMemU32(0xE000E004, 0x1 Items)
T7B18 17527:169.024   CPU_ReadMem(4 bytes @ 0xE000E004)
T7B18 17527:169.024   Data:  02 00 00 00
T7B18 17527:169.024 - 0.803ms returns 1 (0x1)
T7B18 17527:169.024 JLINK_WriteMemEx(0xE0001000, 0x0000001C Bytes, Flags = 0x02000004)
T7B18 17527:169.024   Data:  01 00 00 00 00 00 00 00 00 00 00 00 00 00 00 00 ...
T7B18 17527:169.024   CPU_WriteMem(28 bytes @ 0xE0001000)
T7B18 17527:171.072 - 0.981ms returns 0x1C
T7B18 17527:171.072 JLINK_HasError()
T7B18 17527:171.072 JLINK_ReadReg(R15 (PC))
T7B18 17527:171.072 - 0.016ms returns 0x08000144
T7B18 17527:171.072 JLINK_ReadReg(XPSR)
T7B18 17527:171.072 - 0.014ms returns 0x01000000
T7B18 17527:248.896 JLINK_HasError()
T7B18 17527:250.944 JLINK_SetResetType(JLINKARM_CM3_RESET_TYPE_NORMAL)
T7B18 17527:250.944 - 0.012ms returns JLINKARM_CM3_RESET_TYPE_NORMAL
T7B18 17527:250.944 JLINK_Reset()
T7B18 17527:250.944   JLINK_GetResetTypeDesc
T7B18 17527:250.944   - 0.021ms 
T7B18 17527:250.944   Reset type: NORMAL (https://kb.segger.com/J-Link_Reset_Strategies)
T7B18 17527:250.944   CPU_WriteMem(4 bytes @ 0xE000EDF0)
T7B18 17527:252.992   CPU_WriteMem(4 bytes @ 0xE000EDFC)
T7B18 17527:252.992   Reset: Halt core after reset via DEMCR.VC_CORERESET.
T7B18 17527:255.040   Reset: Reset device via AIRCR.SYSRESETREQ.
T7B18 17527:255.040   CPU_WriteMem(4 bytes @ 0xE000ED0C)
T7B18 17527:306.240   CPU_ReadMem(4 bytes @ 0xE000EDF0)
T7B18 17527:306.240   CPU_ReadMem(4 bytes @ 0xE000EDF0)
T7B18 17527:308.288   CPU_WriteMem(4 bytes @ 0xE000EDFC)
T7B18 17527:312.384   CPU_ReadMem(4 bytes @ 0xE000EDF0)
T7B18 17527:320.576   CPU_WriteMem(4 bytes @ 0xE0002000)
T7B18 17527:320.576   CPU_ReadMem(4 bytes @ 0xE000EDFC)
T7B18 17527:320.576   CPU_ReadMem(4 bytes @ 0xE0001000)
T7B18 17527:320.576 - 71.127ms 
T7B18 17527:320.576 JLINK_HasError()
T7B18 17527:320.576 JLINK_ReadReg(R15 (PC))
T7B18 17527:320.576 - 0.012ms returns 0x08000144
T7B18 17527:320.576 JLINK_ReadReg(XPSR)
T7B18 17527:320.576 - 0.009ms returns 0x01000000
T7B18 17527:322.624 JLINK_ReadMemEx(0x08000144, 0x3C Bytes, Flags = 0x02000000)
T7B18 17527:322.624   CPU_ReadMem(64 bytes @ 0x08000140)
T7B18 17527:324.672    -- Updating C cache (64 bytes @ 0x08000140)
T7B18 17527:324.672    -- Read from C cache (60 bytes @ 0x08000144)
T7B18 17527:324.672   Data:  06 48 80 47 06 48 00 47 FE E7 FE E7 FE E7 FE E7 ...
T7B18 17527:324.672 - 1.412ms returns 60 (0x3C)
T7B18 17528:463.360 JLINK_HasError()
T7B18 17528:463.360 JLINK_ReadReg(R0)
T7B18 17528:465.408 - 0.742ms returns 0x00000000
T7B18 17528:465.408 JLINK_ReadReg(R1)
T7B18 17528:465.408 - 0.004ms returns 0x00000080
T7B18 17528:465.408 JLINK_ReadReg(R2)
T7B18 17528:465.408 - 0.005ms returns 0x00005930
T7B18 17528:465.408 JLINK_ReadReg(R3)
T7B18 17528:465.408 - 0.005ms returns 0x04C11DB7
T7B18 17528:465.408 JLINK_ReadReg(R4)
T7B18 17528:465.408 - 0.004ms returns 0x00000000
T7B18 17528:465.408 JLINK_ReadReg(R5)
T7B18 17528:465.408 - 0.003ms returns 0x00000000
T7B18 17528:465.408 JLINK_ReadReg(R6)
T7B18 17528:465.408 - 0.003ms returns 0x00000000
T7B18 17528:465.408 JLINK_ReadReg(R7)
T7B18 17528:465.408 - 0.003ms returns 0x00000000
T7B18 17528:465.408 JLINK_ReadReg(R8)
T7B18 17528:465.408 - 0.004ms returns 0x00000000
T7B18 17528:465.408 JLINK_ReadReg(R9)
T7B18 17528:465.408 - 0.003ms returns 0x20000134
T7B18 17528:465.408 JLINK_ReadReg(R10)
T7B18 17528:465.408 - 0.003ms returns 0x00000000
T7B18 17528:465.408 JLINK_ReadReg(R11)
T7B18 17528:465.408 - 0.004ms returns 0x00000000
T7B18 17528:465.408 JLINK_ReadReg(R12)
T7B18 17528:465.408 - 0.003ms returns 0x00000000
T7B18 17528:465.408 JLINK_ReadReg(R13 (SP))
T7B18 17528:465.408 - 0.004ms returns 0x200004A0
T7B18 17528:465.408 JLINK_ReadReg(R14)
T7B18 17528:465.408 - 0.004ms returns 0xFFFFFFFF
T7B18 17528:465.408 JLINK_ReadReg(R15 (PC))
T7B18 17528:465.408 - 0.004ms returns 0x08000144
T7B18 17528:465.408 JLINK_ReadReg(XPSR)
T7B18 17528:465.408 - 0.004ms returns 0x01000000
T7B18 17528:465.408 JLINK_ReadReg(MSP)
T7B18 17528:465.408 - 0.003ms returns 0x200004A0
T7B18 17528:465.408 JLINK_ReadReg(PSP)
T7B18 17528:465.408 - 0.003ms returns 0x20001000
T7B18 17528:465.408 JLINK_ReadReg(CFBP)
T7B18 17528:465.408 - 0.003ms returns 0x00000000
T7B18 17528:465.408 JLINK_ReadReg(FPSCR)
T7B18 17528:475.648 - 9.686ms returns 0x00000000
T7B18 17528:475.648 JLINK_ReadReg(FPS0)
T7B18 17528:475.648 - 0.006ms returns 0x00000000
T7B18 17528:475.648 JLINK_ReadReg(FPS1)
T7B18 17528:475.648 - 0.004ms returns 0x00000000
T7B18 17528:475.648 JLINK_ReadReg(FPS2)
T7B18 17528:475.648 - 0.003ms returns 0x45BB7800
T7B18 17528:475.648 JLINK_ReadReg(FPS3)
T7B18 17528:475.648 - 0.047ms returns 0x4020AAAA
T7B18 17528:475.648 JLINK_ReadReg(FPS4)
T7B18 17528:475.648 - 0.004ms returns 0x3F7D70A4
T7B18 17528:475.648 JLINK_ReadReg(FPS5)
T7B18 17528:475.648 - 0.004ms returns 0x40A52600
T7B18 17528:475.648 JLINK_ReadReg(FPS6)
T7B18 17528:475.648 - 0.004ms returns 0x00000000
T7B18 17528:475.648 JLINK_ReadReg(FPS7)
T7B18 17528:475.648 - 0.004ms returns 0x20181CA9
T7B18 17528:475.648 JLINK_ReadReg(FPS8)
T7B18 17528:475.648 - 0.004ms returns 0x00000000
T7B18 17528:475.648 JLINK_ReadReg(FPS9)
T7B18 17528:475.648 - 0.004ms returns 0xA0008018
T7B18 17528:475.648 JLINK_ReadReg(FPS10)
T7B18 17528:475.648 - 0.004ms returns 0x49384849
T7B18 17528:475.648 JLINK_ReadReg(FPS11)
T7B18 17528:475.648 - 0.004ms returns 0x85258506
T7B18 17528:475.648 JLINK_ReadReg(FPS12)
T7B18 17528:475.648 - 0.004ms returns 0x154CB400
T7B18 17528:475.648 JLINK_ReadReg(FPS13)
T7B18 17528:475.648 - 0.004ms returns 0x81F50428
T7B18 17528:475.648 JLINK_ReadReg(FPS14)
T7B18 17528:475.648 - 0.004ms returns 0x8D012A9A
T7B18 17528:475.648 JLINK_ReadReg(FPS15)
T7B18 17528:475.648 - 0.004ms returns 0x35B586BA
T7B18 17528:475.648 JLINK_ReadReg(FPS16)
T7B18 17528:475.648 - 0.004ms returns 0x22C06607
T7B18 17528:475.648 JLINK_ReadReg(FPS17)
T7B18 17528:475.648 - 0.004ms returns 0x1260819A
T7B18 17528:475.648 JLINK_ReadReg(FPS18)
T7B18 17528:475.648 - 0.004ms returns 0x580240C2
T7B18 17528:475.648 JLINK_ReadReg(FPS19)
T7B18 17528:475.648 - 0.004ms returns 0x02883AFF
T7B18 17528:475.648 JLINK_ReadReg(FPS20)
T7B18 17528:475.648 - 0.004ms returns 0x895D1F31
T7B18 17528:475.648 JLINK_ReadReg(FPS21)
T7B18 17528:475.648 - 0.004ms returns 0x010A82E4
T7B18 17528:475.648 JLINK_ReadReg(FPS22)
T7B18 17528:475.648 - 0.004ms returns 0x19040012
T7B18 17528:475.648 JLINK_ReadReg(FPS23)
T7B18 17528:475.648 - 0.004ms returns 0x86009810
T7B18 17528:475.648 JLINK_ReadReg(FPS24)
T7B18 17528:475.648 - 0.004ms returns 0x0A187329
T7B18 17528:475.648 JLINK_ReadReg(FPS25)
T7B18 17528:475.648 - 0.004ms returns 0x20BCCA12
T7B18 17528:475.648 JLINK_ReadReg(FPS26)
T7B18 17528:475.648 - 0.004ms returns 0x8DA80104
T7B18 17528:475.648 JLINK_ReadReg(FPS27)
T7B18 17528:475.648 - 0.004ms returns 0x05128404
T7B18 17528:475.648 JLINK_ReadReg(FPS28)
T7B18 17528:475.648 - 0.004ms returns 0x14169808
T7B18 17528:475.648 JLINK_ReadReg(FPS29)
T7B18 17528:475.648 - 0.004ms returns 0x244A5080
T7B18 17528:475.648 JLINK_ReadReg(FPS30)
T7B18 17528:475.648 - 0.004ms returns 0x00C500C8
T7B18 17528:475.648 JLINK_ReadReg(FPS31)
T7B18 17528:475.648 - 0.004ms returns 0x21C403D3
T7B18 17528:489.984 JLINK_ReadMemEx(0x2000001C, 0x4 Bytes, Flags = 0x02000000)
T7B18 17528:489.984   CPU_ReadMem(64 bytes @ 0x20000000)
T7B18 17528:492.032    -- Updating C cache (64 bytes @ 0x20000000)
T7B18 17528:492.032    -- Read from C cache (4 bytes @ 0x2000001C)
T7B18 17528:492.032   Data:  F2 D1 70 47
T7B18 17528:492.032 - 1.361ms returns 4 (0x4)
T7004 17528:537.088 JLINK_ReadMemEx(0x08000144, 0x2 Bytes, Flags = 0x02000000)
T7004 17528:537.088    -- Read from C cache (2 bytes @ 0x08000144)
T7004 17528:537.088   Data:  06 48
T7004 17528:537.088 - 0.068ms returns 2 (0x2)
T7004 17528:537.088 JLINK_HasError()
T7004 17528:537.088 JLINK_SetBPEx(Addr = 0x080029A0, Type = 0xFFFFFFF2)
T7004 17528:537.088 - 0.008ms returns 0x00000001
T7004 17528:537.088 JLINK_HasError()
T7004 17528:537.088 JLINK_SetBPEx(Addr = 0x080036EE, Type = 0xFFFFFFF2)
T7004 17528:537.088 - 0.006ms returns 0x00000002
T7004 17528:537.088 JLINK_HasError()
T7004 17528:537.088 JLINK_HasError()
T7004 17528:537.088 JLINK_Go()
T7004 17528:537.088   CPU_WriteMem(4 bytes @ 0xE0002000)
T7004 17528:537.088   CPU_WriteMem(4 bytes @ 0xE0002000)
T7004 17528:539.136   CPU_ReadMem(4 bytes @ 0xE0001000)
T7004 17528:539.136   CPU_WriteMem(4 bytes @ 0xE0002008)
T7004 17528:539.136   CPU_WriteMem(4 bytes @ 0xE000200C)
T7004 17528:539.136   CPU_WriteMem(4 bytes @ 0xE0002010)
T7004 17528:539.136   CPU_WriteMem(4 bytes @ 0xE0002014)
T7004 17528:539.136   CPU_WriteMem(4 bytes @ 0xE0002018)
T7004 17528:539.136   CPU_WriteMem(4 bytes @ 0xE000201C)
T7004 17528:541.184   CPU_WriteMem(4 bytes @ 0xE0001004)
T7004 17528:573.952   Memory map 'after startup completion point' is active
T7004 17528:573.952 - 37.092ms 
T7004 17528:674.304 JLINK_HasError()
T7004 17528:674.304 JLINK_IsHalted()
T7004 17528:680.448 - 6.127ms returns TRUE
T7004 17528:680.448 JLINK_HasError()
T7004 17528:680.448 JLINK_Halt()
T7004 17528:680.448 - 0.007ms returns 0x00
T7004 17528:680.448 JLINK_IsHalted()
T7004 17528:680.448 - 0.007ms returns TRUE
T7004 17528:680.448 JLINK_IsHalted()
T7004 17528:680.448 - 0.007ms returns TRUE
T7004 17528:680.448 JLINK_IsHalted()
T7004 17528:680.448 - 0.007ms returns TRUE
T7004 17528:680.448 JLINK_HasError()
T7004 17528:680.448 JLINK_ReadReg(R15 (PC))
T7004 17528:680.448 - 0.010ms returns 0x080029A0
T7004 17528:680.448 JLINK_ReadReg(XPSR)
T7004 17528:680.448 - 0.007ms returns 0x61000000
T7004 17528:680.448 JLINK_HasError()
T7004 17528:680.448 JLINK_ClrBPEx(BPHandle = 0x00000001)
T7004 17528:680.448 - 0.009ms returns 0x00
T7004 17528:680.448 JLINK_HasError()
T7004 17528:680.448 JLINK_ClrBPEx(BPHandle = 0x00000002)
T7004 17528:680.448 - 0.007ms returns 0x00
T7004 17528:680.448 JLINK_HasError()
T7004 17528:680.448 JLINK_HasError()
T7004 17528:680.448 JLINK_ReadMemU32(0xE000ED30, 0x1 Items)
T7004 17528:680.448   CPU_ReadMem(4 bytes @ 0xE000ED30)
T7004 17528:680.448   Data:  02 00 00 00
T7004 17528:680.448 - 0.510ms returns 1 (0x1)
T7004 17528:680.448 JLINK_ReadMemU32(0xE0001028, 0x1 Items)
T7004 17528:680.448   CPU_ReadMem(4 bytes @ 0xE0001028)
T7004 17528:682.496   Data:  00 00 00 00
T7004 17528:682.496   Debug reg: DWT_FUNC[0]
T7004 17528:682.496 - 0.528ms returns 1 (0x1)
T7004 17528:682.496 JLINK_ReadMemU32(0xE0001038, 0x1 Items)
T7004 17528:682.496   CPU_ReadMem(4 bytes @ 0xE0001038)
T7004 17528:682.496   Data:  00 02 00 00
T7004 17528:682.496   Debug reg: DWT_FUNC[1]
T7004 17528:682.496 - 0.493ms returns 1 (0x1)
T7004 17528:682.496 JLINK_ReadMemU32(0xE0001048, 0x1 Items)
T7004 17528:682.496   CPU_ReadMem(4 bytes @ 0xE0001048)
T7004 17528:682.496   Data:  00 00 00 00
T7004 17528:682.496   Debug reg: DWT_FUNC[2]
T7004 17528:682.496 - 0.484ms returns 1 (0x1)
T7004 17528:682.496 JLINK_ReadMemU32(0xE0001058, 0x1 Items)
T7004 17528:682.496   CPU_ReadMem(4 bytes @ 0xE0001058)
T7004 17528:684.544   Data:  00 00 00 00
T7004 17528:684.544   Debug reg: DWT_FUNC[3]
T7004 17528:684.544 - 0.501ms returns 1 (0x1)
T7004 17528:684.544 JLINK_HasError()
T7004 17528:684.544 JLINK_ReadReg(R0)
T7004 17528:684.544 - 0.008ms returns 0x080029A1
T7004 17528:684.544 JLINK_ReadReg(R1)
T7004 17528:684.544 - 0.007ms returns 0x200004A0
T7004 17528:684.544 JLINK_ReadReg(R2)
T7004 17528:684.544 - 0.007ms returns 0x00000000
T7004 17528:684.544 JLINK_ReadReg(R3)
T7004 17528:684.544 - 0.007ms returns 0x08004EA9
T7004 17528:684.544 JLINK_ReadReg(R4)
T7004 17528:684.544 - 0.007ms returns 0x08005924
T7004 17528:684.544 JLINK_ReadReg(R5)
T7004 17528:684.544 - 0.007ms returns 0x08005924
T7004 17528:684.544 JLINK_ReadReg(R6)
T7004 17528:684.544 - 0.007ms returns 0x00000000
T7004 17528:684.544 JLINK_ReadReg(R7)
T7004 17528:684.544 - 0.007ms returns 0x00000000
T7004 17528:684.544 JLINK_ReadReg(R8)
T7004 17528:684.544 - 0.007ms returns 0x00000000
T7004 17528:684.544 JLINK_ReadReg(R9)
T7004 17528:684.544 - 0.007ms returns 0x20000134
T7004 17528:684.544 JLINK_ReadReg(R10)
T7004 17528:684.544 - 0.007ms returns 0x00000000
T7004 17528:684.544 JLINK_ReadReg(R11)
T7004 17528:684.544 - 0.007ms returns 0x00000000
T7004 17528:684.544 JLINK_ReadReg(R12)
T7004 17528:684.544 - 0.007ms returns 0x00000000
T7004 17528:684.544 JLINK_ReadReg(R13 (SP))
T7004 17528:684.544 - 0.007ms returns 0x200004A0
T7004 17528:684.544 JLINK_ReadReg(R14)
T7004 17528:684.544 - 0.007ms returns 0x08000759
T7004 17528:684.544 JLINK_ReadReg(R15 (PC))
T7004 17528:684.544 - 0.007ms returns 0x080029A0
T7004 17528:684.544 JLINK_ReadReg(XPSR)
T7004 17528:684.544 - 0.007ms returns 0x61000000
T7004 17528:684.544 JLINK_ReadReg(MSP)
T7004 17528:684.544 - 0.010ms returns 0x200004A0
T7004 17528:684.544 JLINK_ReadReg(PSP)
T7004 17528:684.544 - 0.007ms returns 0x20001000
T7004 17528:684.544 JLINK_ReadReg(CFBP)
T7004 17528:684.544 - 0.007ms returns 0x00000000
T7004 17528:684.544 JLINK_ReadReg(FPSCR)
T7004 17528:694.784 - 10.038ms returns 0x00000000
T7004 17528:694.784 JLINK_ReadReg(FPS0)
T7004 17528:694.784 - 0.010ms returns 0x00000000
T7004 17528:694.784 JLINK_ReadReg(FPS1)
T7004 17528:694.784 - 0.006ms returns 0x00000000
T7004 17528:694.784 JLINK_ReadReg(FPS2)
T7004 17528:694.784 - 0.006ms returns 0x45BB7800
T7004 17528:694.784 JLINK_ReadReg(FPS3)
T7004 17528:694.784 - 0.006ms returns 0x4020AAAA
T7004 17528:694.784 JLINK_ReadReg(FPS4)
T7004 17528:694.784 - 0.006ms returns 0x3F7D70A4
T7004 17528:694.784 JLINK_ReadReg(FPS5)
T7004 17528:694.784 - 0.006ms returns 0x40A52600
T7004 17528:694.784 JLINK_ReadReg(FPS6)
T7004 17528:694.784 - 0.006ms returns 0x00000000
T7004 17528:694.784 JLINK_ReadReg(FPS7)
T7004 17528:694.784 - 0.006ms returns 0x20181CA9
T7004 17528:694.784 JLINK_ReadReg(FPS8)
T7004 17528:694.784 - 0.006ms returns 0x00000000
T7004 17528:694.784 JLINK_ReadReg(FPS9)
T7004 17528:694.784 - 0.006ms returns 0xA0008018
T7004 17528:694.784 JLINK_ReadReg(FPS10)
T7004 17528:694.784 - 0.006ms returns 0x49384849
T7004 17528:694.784 JLINK_ReadReg(FPS11)
T7004 17528:694.784 - 0.006ms returns 0x85258506
T7004 17528:694.784 JLINK_ReadReg(FPS12)
T7004 17528:694.784 - 0.006ms returns 0x154CB400
T7004 17528:694.784 JLINK_ReadReg(FPS13)
T7004 17528:694.784 - 0.006ms returns 0x81F50428
T7004 17528:694.784 JLINK_ReadReg(FPS14)
T7004 17528:694.784 - 0.006ms returns 0x8D012A9A
T7004 17528:694.784 JLINK_ReadReg(FPS15)
T7004 17528:694.784 - 0.006ms returns 0x35B586BA
T7004 17528:694.784 JLINK_ReadReg(FPS16)
T7004 17528:694.784 - 0.006ms returns 0x22C06607
T7004 17528:694.784 JLINK_ReadReg(FPS17)
T7004 17528:694.784 - 0.006ms returns 0x1260819A
T7004 17528:694.784 JLINK_ReadReg(FPS18)
T7004 17528:694.784 - 0.006ms returns 0x580240C2
T7004 17528:694.784 JLINK_ReadReg(FPS19)
T7004 17528:694.784 - 0.006ms returns 0x02883AFF
T7004 17528:694.784 JLINK_ReadReg(FPS20)
T7004 17528:694.784 - 0.006ms returns 0x895D1F31
T7004 17528:694.784 JLINK_ReadReg(FPS21)
T7004 17528:694.784 - 0.006ms returns 0x010A82E4
T7004 17528:694.784 JLINK_ReadReg(FPS22)
T7004 17528:694.784 - 0.006ms returns 0x19040012
T7004 17528:694.784 JLINK_ReadReg(FPS23)
T7004 17528:694.784 - 0.006ms returns 0x86009810
T7004 17528:694.784 JLINK_ReadReg(FPS24)
T7004 17528:694.784 - 0.006ms returns 0x0A187329
T7004 17528:694.784 JLINK_ReadReg(FPS25)
T7004 17528:694.784 - 0.006ms returns 0x20BCCA12
T7004 17528:694.784 JLINK_ReadReg(FPS26)
T7004 17528:694.784 - 0.006ms returns 0x8DA80104
T7004 17528:694.784 JLINK_ReadReg(FPS27)
T7004 17528:694.784 - 0.006ms returns 0x05128404
T7004 17528:694.784 JLINK_ReadReg(FPS28)
T7004 17528:694.784 - 0.006ms returns 0x14169808
T7004 17528:694.784 JLINK_ReadReg(FPS29)
T7004 17528:694.784 - 0.006ms returns 0x244A5080
T7004 17528:694.784 JLINK_ReadReg(FPS30)
T7004 17528:694.784 - 0.007ms returns 0x00C500C8
T7004 17528:694.784 JLINK_ReadReg(FPS31)
T7004 17528:694.784 - 0.006ms returns 0x21C403D3
T7B18 17528:696.832 JLINK_ReadMemEx(0x200004B7, 0x1 Bytes, Flags = 0x02000000)
T7B18 17528:696.832   CPU_ReadMem(64 bytes @ 0x20000480)
T7B18 17528:696.832    -- Updating C cache (64 bytes @ 0x20000480)
T7B18 17528:696.832    -- Read from C cache (1 bytes @ 0x200004B7)
T7B18 17528:696.832   Data:  FF
T7B18 17528:696.832 - 1.561ms returns 1 (0x1)
T7B18 17528:696.832 JLINK_ReadMemEx(0x200004B6, 0x1 Bytes, Flags = 0x02000000)
T7B18 17528:696.832    -- Read from C cache (1 bytes @ 0x200004B6)
T7B18 17528:696.832   Data:  FF
T7B18 17528:696.832 - 0.024ms returns 1 (0x1)
T7B18 17528:696.832 JLINK_ReadMemEx(0x00000000, 0x4 Bytes, Flags = 0x02000000)
T7B18 17528:696.832   CPU_ReadMem(4 bytes @ 0x00000000)
T7B18 17528:696.832   Data:  A0 04 00 20
T7B18 17528:696.832 - 0.740ms returns 4 (0x4)
T7B18 17528:696.832 JLINK_ReadMemEx(0x2000001C, 0x4 Bytes, Flags = 0x02000000)
T7B18 17528:696.832   CPU_ReadMem(64 bytes @ 0x20000000)
T7B18 17528:698.880    -- Updating C cache (64 bytes @ 0x20000000)
T7B18 17528:698.880    -- Read from C cache (4 bytes @ 0x2000001C)
T7B18 17528:698.880   Data:  00 00 00 00
T7B18 17528:698.880 - 1.531ms returns 4 (0x4)
T7B18 17528:700.928 JLINK_ReadMemEx(0x080029A0, 0x3C Bytes, Flags = 0x02000000)
T7B18 17528:700.928   CPU_ReadMem(128 bytes @ 0x08002980)
T7B18 17528:705.024    -- Updating C cache (128 bytes @ 0x08002980)
T7B18 17528:705.024    -- Read from C cache (60 bytes @ 0x080029A0)
T7B18 17528:705.024   Data:  80 B5 8A B0 00 20 09 90 FD F7 62 FF 4F F4 A0 60 ...
T7B18 17528:705.024 - 2.622ms returns 60 (0x3C)
T7004 17531:598.848 JLINK_ReadMemEx(0x080029A0, 0x2 Bytes, Flags = 0x02000000)
T7004 17531:598.848    -- Read from C cache (2 bytes @ 0x080029A0)
T7004 17531:598.848   Data:  80 B5
T7004 17531:598.848 - 0.089ms returns 2 (0x2)
T7004 17531:598.848 JLINK_HasError()
T7004 17531:598.848 JLINK_SetBPEx(Addr = 0x080036EE, Type = 0xFFFFFFF2)
T7004 17531:598.848 - 0.016ms returns 0x00000003
T7004 17531:598.848 JLINK_HasError()
T7004 17531:598.848 JLINK_HasError()
T7004 17531:598.848 JLINK_Go()
T7004 17531:598.848   CPU_WriteMem(4 bytes @ 0xE0002000)
T7004 17531:598.848   CPU_ReadMem(4 bytes @ 0xE0001000)
T7004 17531:600.896   CPU_WriteMem(4 bytes @ 0xE0002008)
T7004 17531:600.896   CPU_WriteMem(4 bytes @ 0xE000200C)
T7004 17531:602.944 - 3.529ms 
T7004 17531:703.296 JLINK_HasError()
T7004 17531:703.296 JLINK_IsHalted()
T7004 17531:703.296 - 0.542ms returns FALSE
T7004 17531:803.648 JLINK_HasError()
T7004 17531:803.648 JLINK_IsHalted()
T7004 17531:805.696 - 0.962ms returns FALSE
T7004 17531:906.048 JLINK_HasError()
T7004 17531:906.048 JLINK_IsHalted()
T7004 17531:908.096 - 0.880ms returns FALSE
T7004 17532:006.400 JLINK_HasError()
T7004 17532:006.400 JLINK_IsHalted()
T7004 17532:006.400 - 0.838ms returns FALSE
T7004 17532:108.800 JLINK_HasError()
T7004 17532:108.800 JLINK_HasError()
T7004 17532:108.800 JLINK_ReadMemU32(0xE0001004, 0x1 Items)
T7004 17532:108.800   CPU_ReadMem(4 bytes @ 0xE0001004)
T7004 17532:108.800   Data:  D2 CB 9F 03
T7004 17532:108.800   Debug reg: DWT_CYCCNT
T7004 17532:108.800 - 0.749ms returns 1 (0x1)
T7B18 17532:110.848 JLINK_ReadMemEx(0x2000001C, 0x4 Bytes, Flags = 0x02000000)
T7B18 17532:110.848   CPU_ReadMem(4 bytes @ 0x2000001C)
T7B18 17532:110.848   Data:  F9 01 00 00
T7B18 17532:110.848 - 0.789ms returns 4 (0x4)
T7004 17532:112.896 JLINK_IsHalted()
T7004 17532:116.992 - 2.743ms returns FALSE
T7004 17532:217.344 JLINK_HasError()
T7004 17532:217.344 JLINK_IsHalted()
T7004 17532:219.392 - 0.779ms returns FALSE
T7004 17532:317.696 JLINK_HasError()
T7004 17532:317.696 JLINK_IsHalted()
T7004 17532:319.744 - 0.682ms returns FALSE
T7004 17532:420.096 JLINK_HasError()
T7004 17532:420.096 JLINK_IsHalted()
T7004 17532:420.096 - 0.890ms returns FALSE
T7004 17532:522.496 JLINK_HasError()
T7004 17532:522.496 JLINK_IsHalted()
T7004 17532:522.496 - 0.669ms returns FALSE
T7004 17532:622.848 JLINK_HasError()
T7004 17532:622.848 JLINK_HasError()
T7004 17532:622.848 JLINK_ReadMemU32(0xE0001004, 0x1 Items)
T7004 17532:622.848   Data:  D2 CB 9F 03
T7004 17532:622.848   Debug reg: DWT_CYCCNT
T7004 17532:622.848 - 0.052ms returns 1 (0x1)
T7B18 17532:622.848 JLINK_ReadMemEx(0x2000001C, 0x4 Bytes, Flags = 0x02000000)
T7B18 17532:622.848   CPU_ReadMem(4 bytes @ 0x2000001C)
T7B18 17532:622.848   Data:  FA 03 00 00
T7B18 17532:622.848 - 0.800ms returns 4 (0x4)
T7004 17532:628.992 JLINK_IsHalted()
T7004 17532:628.992 - 0.762ms returns FALSE
T7004 17532:727.296 JLINK_HasError()
T7004 17532:727.296 JLINK_IsHalted()
T7004 17532:729.344 - 1.022ms returns FALSE
T7004 17532:831.744 JLINK_HasError()
T7004 17532:831.744 JLINK_IsHalted()
T7004 17532:831.744 - 0.609ms returns FALSE
T7004 17532:932.096 JLINK_HasError()
T7004 17532:932.096 JLINK_IsHalted()
T7004 17532:932.096 - 0.757ms returns FALSE
T7004 17533:032.448 JLINK_HasError()
T7004 17533:032.448 JLINK_IsHalted()
T7004 17533:034.496 - 0.617ms returns FALSE
T7004 17533:134.848 JLINK_HasError()
T7004 17533:134.848 JLINK_HasError()
T7004 17533:134.848 JLINK_ReadMemU32(0xE0001004, 0x1 Items)
T7004 17533:134.848   Data:  D2 CB 9F 03
T7004 17533:134.848   Debug reg: DWT_CYCCNT
T7004 17533:134.848 - 0.056ms returns 1 (0x1)
T7B18 17533:134.848 JLINK_ReadMemEx(0x2000001C, 0x4 Bytes, Flags = 0x02000000)
T7B18 17533:134.848   CPU_ReadMem(4 bytes @ 0x2000001C)
T7B18 17533:134.848   Data:  FA 05 00 00
T7B18 17533:134.848 - 0.840ms returns 4 (0x4)
T7004 17533:138.944 JLINK_IsHalted()
T7004 17533:138.944 - 0.758ms returns FALSE
T7004 17533:241.344 JLINK_HasError()
T7004 17533:241.344 JLINK_IsHalted()
T7004 17533:241.344 - 0.612ms returns FALSE
T7004 17533:341.696 JLINK_HasError()
T7004 17533:341.696 JLINK_IsHalted()
T7004 17533:341.696 - 0.864ms returns FALSE
T7004 17533:444.096 JLINK_HasError()
T7004 17533:444.096 JLINK_IsHalted()
T7004 17533:444.096 - 0.790ms returns FALSE
T7004 17533:546.496 JLINK_HasError()
T7004 17533:546.496 JLINK_IsHalted()
T7004 17533:546.496 - 1.270ms returns FALSE
T7004 17533:646.848 JLINK_HasError()
T7004 17533:646.848 JLINK_IsHalted()
T7004 17533:648.896 - 0.771ms returns FALSE
T7004 17533:749.248 JLINK_HasError()
T7004 17533:749.248 JLINK_HasError()
T7004 17533:749.248 JLINK_ReadMemU32(0xE0001004, 0x1 Items)
T7004 17533:749.248   Data:  D2 CB 9F 03
T7004 17533:749.248   Debug reg: DWT_CYCCNT
T7004 17533:749.248 - 0.051ms returns 1 (0x1)
T7B18 17533:749.248 JLINK_ReadMemEx(0x2000001C, 0x4 Bytes, Flags = 0x02000000)
T7B18 17533:749.248   CPU_ReadMem(4 bytes @ 0x2000001C)
T7B18 17533:751.296   Data:  61 08 00 00
T7B18 17533:751.296 - 1.091ms returns 4 (0x4)
T7004 17533:755.392 JLINK_IsHalted()
T7004 17533:755.392 - 0.884ms returns FALSE
T7004 17533:857.792 JLINK_HasError()
T7004 17533:857.792 JLINK_IsHalted()
T7004 17533:857.792 - 0.801ms returns FALSE
T7004 17533:958.144 JLINK_HasError()
T7004 17533:958.144 JLINK_IsHalted()
T7004 17533:958.144 - 0.817ms returns FALSE
T7004 17534:058.496 JLINK_HasError()
T7004 17534:058.496 JLINK_IsHalted()
T7004 17534:060.544 - 0.773ms returns FALSE
T7004 17534:160.896 JLINK_HasError()
T7004 17534:160.896 JLINK_IsHalted()
T7004 17534:160.896 - 0.855ms returns FALSE
T7004 17534:261.248 JLINK_HasError()
T7004 17534:261.248 JLINK_HasError()
T7004 17534:261.248 JLINK_ReadMemU32(0xE0001004, 0x1 Items)
T7004 17534:261.248   Data:  D2 CB 9F 03
T7004 17534:263.296   Debug reg: DWT_CYCCNT
T7004 17534:263.296 - 0.068ms returns 1 (0x1)
T7B18 17534:263.296 JLINK_ReadMemEx(0x2000001C, 0x4 Bytes, Flags = 0x02000000)
T7B18 17534:263.296   CPU_ReadMem(4 bytes @ 0x2000001C)
T7B18 17534:263.296   Data:  62 0A 00 00
T7B18 17534:263.296 - 1.070ms returns 4 (0x4)
T7004 17534:269.440 JLINK_IsHalted()
T7004 17534:271.488 - 2.410ms returns FALSE
T7004 17534:373.888 JLINK_HasError()
T7004 17534:373.888 JLINK_Halt()
T7004 17534:382.080 - 7.717ms returns 0x00
T7004 17534:382.080 JLINK_IsHalted()
T7004 17534:382.080 - 0.011ms returns TRUE
T7004 17534:382.080 JLINK_IsHalted()
T7004 17534:382.080 - 0.010ms returns TRUE
T7004 17534:382.080 JLINK_IsHalted()
T7004 17534:382.080 - 0.010ms returns TRUE
T7004 17534:382.080 JLINK_HasError()
T7004 17534:382.080 JLINK_ReadReg(R15 (PC))
T7004 17534:382.080 - 0.015ms returns 0x08002A9C
T7004 17534:382.080 JLINK_ReadReg(XPSR)
T7004 17534:382.080 - 0.011ms returns 0x61000000
T7004 17534:382.080 JLINK_HasError()
T7004 17534:382.080 JLINK_ClrBPEx(BPHandle = 0x00000003)
T7004 17534:382.080 - 0.012ms returns 0x00
T7004 17534:382.080 JLINK_HasError()
T7004 17534:382.080 JLINK_HasError()
T7004 17534:382.080 JLINK_ReadMemU32(0xE000ED30, 0x1 Items)
T7004 17534:382.080   CPU_ReadMem(4 bytes @ 0xE000ED30)
T7004 17534:382.080   Data:  01 00 00 00
T7004 17534:382.080 - 0.694ms returns 1 (0x1)
T7004 17534:382.080 JLINK_ReadMemU32(0xE0001028, 0x1 Items)
T7004 17534:382.080   CPU_ReadMem(4 bytes @ 0xE0001028)
T7004 17534:382.080   Data:  00 00 00 00
T7004 17534:382.080   Debug reg: DWT_FUNC[0]
T7004 17534:382.080 - 1.465ms returns 1 (0x1)
T7004 17534:382.080 JLINK_ReadMemU32(0xE0001038, 0x1 Items)
T7004 17534:382.080   CPU_ReadMem(4 bytes @ 0xE0001038)
T7004 17534:382.080   Data:  00 02 00 00
T7004 17534:382.080   Debug reg: DWT_FUNC[1]
T7004 17534:382.080 - 0.766ms returns 1 (0x1)
T7004 17534:382.080 JLINK_ReadMemU32(0xE0001048, 0x1 Items)
T7004 17534:382.080   CPU_ReadMem(4 bytes @ 0xE0001048)
T7004 17534:384.128   Data:  00 00 00 00
T7004 17534:384.128   Debug reg: DWT_FUNC[2]
T7004 17534:384.128 - 0.562ms returns 1 (0x1)
T7004 17534:384.128 JLINK_ReadMemU32(0xE0001058, 0x1 Items)
T7004 17534:384.128   CPU_ReadMem(4 bytes @ 0xE0001058)
T7004 17534:384.128   Data:  00 00 00 00
T7004 17534:384.128   Debug reg: DWT_FUNC[3]
T7004 17534:384.128 - 0.536ms returns 1 (0x1)
T7004 17534:384.128 JLINK_HasError()
T7004 17534:384.128 JLINK_ReadReg(R0)
T7004 17534:384.128 - 0.011ms returns 0x00000000
T7004 17534:384.128 JLINK_ReadReg(R1)
T7004 17534:384.128 - 0.008ms returns 0xFFFFFFFF
T7004 17534:384.128 JLINK_ReadReg(R2)
T7004 17534:384.128 - 0.008ms returns 0x000003E8
T7004 17534:384.128 JLINK_ReadReg(R3)
T7004 17534:384.128 - 0.007ms returns 0x00000A3C
T7004 17534:384.128 JLINK_ReadReg(R4)
T7004 17534:384.128 - 0.007ms returns 0x08005924
T7004 17534:384.128 JLINK_ReadReg(R5)
T7004 17534:384.128 - 0.007ms returns 0x08005924
T7004 17534:384.128 JLINK_ReadReg(R6)
T7004 17534:384.128 - 0.007ms returns 0x00000000
T7004 17534:384.128 JLINK_ReadReg(R7)
T7004 17534:384.128 - 0.007ms returns 0x00000000
T7004 17534:384.128 JLINK_ReadReg(R8)
T7004 17534:384.128 - 0.008ms returns 0x00000000
T7004 17534:384.128 JLINK_ReadReg(R9)
T7004 17534:384.128 - 0.007ms returns 0x20000134
T7004 17534:384.128 JLINK_ReadReg(R10)
T7004 17534:384.128 - 0.007ms returns 0x00000000
T7004 17534:384.128 JLINK_ReadReg(R11)
T7004 17534:384.128 - 0.007ms returns 0x00000000
T7004 17534:384.128 JLINK_ReadReg(R12)
T7004 17534:384.128 - 0.007ms returns 0x00000010
T7004 17534:384.128 JLINK_ReadReg(R13 (SP))
T7004 17534:384.128 - 0.008ms returns 0x20000470
T7004 17534:384.128 JLINK_ReadReg(R14)
T7004 17534:384.128 - 0.007ms returns 0x00000000
T7004 17534:384.128 JLINK_ReadReg(R15 (PC))
T7004 17534:384.128 - 0.008ms returns 0x08002A9C
T7004 17534:384.128 JLINK_ReadReg(XPSR)
T7004 17534:384.128 - 0.007ms returns 0x61000000
T7004 17534:384.128 JLINK_ReadReg(MSP)
T7004 17534:384.128 - 0.007ms returns 0x20000470
T7004 17534:384.128 JLINK_ReadReg(PSP)
T7004 17534:384.128 - 0.007ms returns 0x20001000
T7004 17534:384.128 JLINK_ReadReg(CFBP)
T7004 17534:384.128 - 0.007ms returns 0x04000001
T7004 17534:384.128 JLINK_ReadReg(FPSCR)
T7004 17534:396.416 - 10.072ms returns 0x80000010
T7004 17534:396.416 JLINK_ReadReg(FPS0)
T7004 17534:396.416 - 0.020ms returns 0x436640CA
T7004 17534:396.416 JLINK_ReadReg(FPS1)
T7004 17534:396.416 - 0.014ms returns 0x00000000
T7004 17534:396.416 JLINK_ReadReg(FPS2)
T7004 17534:396.416 - 0.013ms returns 0x43858000
T7004 17534:396.416 JLINK_ReadReg(FPS3)
T7004 17534:396.416 - 0.014ms returns 0x4020AAAA
T7004 17534:396.416 JLINK_ReadReg(FPS4)
T7004 17534:396.416 - 0.014ms returns 0x432F0F5C
T7004 17534:396.416 JLINK_ReadReg(FPS5)
T7004 17534:396.416 - 0.014ms returns 0x40A52700
T7004 17534:396.416 JLINK_ReadReg(FPS6)
T7004 17534:396.416 - 0.014ms returns 0x00000000
T7004 17534:396.416 JLINK_ReadReg(FPS7)
T7004 17534:396.416 - 0.014ms returns 0x20181CA9
T7004 17534:396.416 JLINK_ReadReg(FPS8)
T7004 17534:396.416 - 0.014ms returns 0x00000000
T7004 17534:396.416 JLINK_ReadReg(FPS9)
T7004 17534:396.416 - 0.030ms returns 0xA0008018
T7004 17534:396.416 JLINK_ReadReg(FPS10)
T7004 17534:396.416 - 0.024ms returns 0x49384849
T7004 17534:396.416 JLINK_ReadReg(FPS11)
T7004 17534:396.416 - 0.006ms returns 0x85258506
T7004 17534:396.416 JLINK_ReadReg(FPS12)
T7004 17534:396.416 - 0.006ms returns 0x154CB400
T7004 17534:396.416 JLINK_ReadReg(FPS13)
T7004 17534:396.416 - 0.008ms returns 0x81F50428
T7004 17534:396.416 JLINK_ReadReg(FPS14)
T7004 17534:396.416 - 0.008ms returns 0x8D012A9A
T7004 17534:396.416 JLINK_ReadReg(FPS15)
T7004 17534:396.416 - 0.006ms returns 0x35B586BA
T7004 17534:396.416 JLINK_ReadReg(FPS16)
T7004 17534:396.416 - 0.006ms returns 0x22C06607
T7004 17534:396.416 JLINK_ReadReg(FPS17)
T7004 17534:396.416 - 0.006ms returns 0x1260819A
T7004 17534:396.416 JLINK_ReadReg(FPS18)
T7004 17534:396.416 - 0.006ms returns 0x580240C2
T7004 17534:396.416 JLINK_ReadReg(FPS19)
T7004 17534:396.416 - 0.006ms returns 0x02883AFF
T7004 17534:396.416 JLINK_ReadReg(FPS20)
T7004 17534:396.416 - 0.006ms returns 0x895D1F31
T7004 17534:396.416 JLINK_ReadReg(FPS21)
T7004 17534:396.416 - 0.006ms returns 0x010A82E4
T7004 17534:396.416 JLINK_ReadReg(FPS22)
T7004 17534:396.416 - 0.006ms returns 0x19040012
T7004 17534:396.416 JLINK_ReadReg(FPS23)
T7004 17534:396.416 - 0.006ms returns 0x86009810
T7004 17534:396.416 JLINK_ReadReg(FPS24)
T7004 17534:396.416 - 0.006ms returns 0x0A187329
T7004 17534:396.416 JLINK_ReadReg(FPS25)
T7004 17534:396.416 - 0.006ms returns 0x20BCCA12
T7004 17534:396.416 JLINK_ReadReg(FPS26)
T7004 17534:396.416 - 0.006ms returns 0x8DA80104
T7004 17534:396.416 JLINK_ReadReg(FPS27)
T7004 17534:396.416 - 0.006ms returns 0x05128404
T7004 17534:396.416 JLINK_ReadReg(FPS28)
T7004 17534:396.416 - 0.006ms returns 0x14169808
T7004 17534:396.416 JLINK_ReadReg(FPS29)
T7004 17534:396.416 - 0.006ms returns 0x244A5080
T7004 17534:396.416 JLINK_ReadReg(FPS30)
T7004 17534:396.416 - 0.006ms returns 0x00C500C8
T7004 17534:396.416 JLINK_ReadReg(FPS31)
T7004 17534:396.416 - 0.006ms returns 0x21C403D3
T7B18 17534:396.416 JLINK_ReadMemEx(0x2000049C, 0x4 Bytes, Flags = 0x02000000)
T7B18 17534:396.416   CPU_ReadMem(64 bytes @ 0x20000480)
T7B18 17534:398.464    -- Updating C cache (64 bytes @ 0x20000480)
T7B18 17534:398.464    -- Read from C cache (4 bytes @ 0x2000049C)
T7B18 17534:398.464   Data:  59 07 00 08
T7B18 17534:398.464 - 1.460ms returns 4 (0x4)
T7B18 17534:398.464 JLINK_ReadMemEx(0x20000487, 0x1 Bytes, Flags = 0x02000000)
T7B18 17534:398.464    -- Read from C cache (1 bytes @ 0x20000487)
T7B18 17534:398.464   Data:  01
T7B18 17534:398.464 - 0.016ms returns 1 (0x1)
T7B18 17534:398.464 JLINK_ReadMemEx(0x20000486, 0x1 Bytes, Flags = 0x02000000)
T7B18 17534:398.464    -- Read from C cache (1 bytes @ 0x20000486)
T7B18 17534:398.464   Data:  01
T7B18 17534:398.464 - 0.015ms returns 1 (0x1)
T7B18 17534:398.464 JLINK_ReadMemEx(0x20000480, 0x4 Bytes, Flags = 0x02000000)
T7B18 17534:398.464    -- Read from C cache (4 bytes @ 0x20000480)
T7B18 17534:398.464   Data:  00 00 00 00
T7B18 17534:398.464 - 0.015ms returns 4 (0x4)
T7B18 17534:398.464 JLINK_ReadMemEx(0x2000001C, 0x4 Bytes, Flags = 0x02000000)
T7B18 17534:398.464   CPU_ReadMem(64 bytes @ 0x20000000)
T7B18 17534:398.464    -- Updating C cache (64 bytes @ 0x20000000)
T7B18 17534:398.464    -- Read from C cache (4 bytes @ 0x2000001C)
T7B18 17534:398.464   Data:  D0 0A 00 00
T7B18 17534:398.464 - 1.336ms returns 4 (0x4)
T7B18 17534:402.560 JLINK_ReadMemEx(0x08002A9C, 0x3C Bytes, Flags = 0x02000000)
T7B18 17534:402.560   CPU_ReadMem(128 bytes @ 0x08002A80)
T7B18 17534:406.656    -- Updating C cache (128 bytes @ 0x08002A80)
T7B18 17534:406.656    -- Read from C cache (60 bytes @ 0x08002A9C)
T7B18 17534:406.656   Data:  62 B6 FF E7 04 98 41 1E 04 91 00 28 15 D0 FF E7 ...
T7B18 17534:406.656 - 2.260ms returns 60 (0x3C)
T7004 17543:016.448 JLINK_ReadMemEx(0x08002A9C, 0x2 Bytes, Flags = 0x02000000)
T7004 17543:016.448    -- Read from C cache (2 bytes @ 0x08002A9C)
T7004 17543:016.448   Data:  62 B6
T7004 17543:016.448 - 0.041ms returns 2 (0x2)
T7004 17543:016.448 JLINK_HasError()
T7004 17543:016.448 JLINK_SetBPEx(Addr = 0x080036EE, Type = 0xFFFFFFF2)
T7004 17543:016.448 - 0.008ms returns 0x00000004
T7004 17543:016.448 JLINK_HasError()
T7004 17543:016.448 JLINK_SetBPEx(Addr = 0x080032FC, Type = 0xFFFFFFF2)
T7004 17543:016.448 - 0.004ms returns 0x00000005
T7004 17543:016.448 JLINK_HasError()
T7004 17543:016.448 JLINK_HasError()
T7004 17543:016.448 JLINK_Go()
T7004 17543:018.496   CPU_WriteMem(4 bytes @ 0xE0002000)
T7004 17543:018.496   CPU_WriteMem(4 bytes @ 0xE0002000)
T7004 17543:018.496   CPU_ReadMem(4 bytes @ 0xE0001000)
T7004 17543:020.544   CPU_WriteMem(4 bytes @ 0xE000200C)
T7004 17543:020.544 - 5.977ms 
T7004 17543:122.944 JLINK_HasError()
T7004 17543:122.944 JLINK_IsHalted()
T7004 17543:129.088 - 6.032ms returns TRUE
T7004 17543:129.088 JLINK_HasError()
T7004 17543:129.088 JLINK_Halt()
T7004 17543:129.088 - 0.004ms returns 0x00
T7004 17543:129.088 JLINK_IsHalted()
T7004 17543:129.088 - 0.004ms returns TRUE
T7004 17543:129.088 JLINK_IsHalted()
T7004 17543:129.088 - 0.004ms returns TRUE
T7004 17543:129.088 JLINK_IsHalted()
T7004 17543:129.088 - 0.004ms returns TRUE
T7004 17543:129.088 JLINK_HasError()
T7004 17543:129.088 JLINK_ReadReg(R15 (PC))
T7004 17543:129.088 - 0.008ms returns 0x080032FC
T7004 17543:129.088 JLINK_ReadReg(XPSR)
T7004 17543:129.088 - 0.004ms returns 0x81000000
T7004 17543:129.088 JLINK_HasError()
T7004 17543:129.088 JLINK_ClrBPEx(BPHandle = 0x00000004)
T7004 17543:129.088 - 0.008ms returns 0x00
T7004 17543:129.088 JLINK_HasError()
T7004 17543:129.088 JLINK_ClrBPEx(BPHandle = 0x00000005)
T7004 17543:129.088 - 0.014ms returns 0x00
T7004 17543:129.088 JLINK_HasError()
T7004 17543:129.088 JLINK_HasError()
T7004 17543:129.088 JLINK_ReadMemU32(0xE000ED30, 0x1 Items)
T7004 17543:129.088   CPU_ReadMem(4 bytes @ 0xE000ED30)
T7004 17543:131.136   Data:  02 00 00 00
T7004 17543:131.136 - 0.481ms returns 1 (0x1)
T7004 17543:131.136 JLINK_ReadMemU32(0xE0001028, 0x1 Items)
T7004 17543:131.136   CPU_ReadMem(4 bytes @ 0xE0001028)
T7004 17543:131.136   Data:  00 00 00 00
T7004 17543:131.136   Debug reg: DWT_FUNC[0]
T7004 17543:131.136 - 0.538ms returns 1 (0x1)
T7004 17543:131.136 JLINK_ReadMemU32(0xE0001038, 0x1 Items)
T7004 17543:131.136   CPU_ReadMem(4 bytes @ 0xE0001038)
T7004 17543:131.136   Data:  00 02 00 00
T7004 17543:131.136   Debug reg: DWT_FUNC[1]
T7004 17543:131.136 - 0.461ms returns 1 (0x1)
T7004 17543:131.136 JLINK_ReadMemU32(0xE0001048, 0x1 Items)
T7004 17543:131.136   CPU_ReadMem(4 bytes @ 0xE0001048)
T7004 17543:131.136   Data:  00 00 00 00
T7004 17543:131.136   Debug reg: DWT_FUNC[2]
T7004 17543:131.136 - 0.488ms returns 1 (0x1)
T7004 17543:131.136 JLINK_ReadMemU32(0xE0001058, 0x1 Items)
T7004 17543:131.136   CPU_ReadMem(4 bytes @ 0xE0001058)
T7004 17543:131.136   Data:  00 00 00 00
T7004 17543:131.136   Debug reg: DWT_FUNC[3]
T7004 17543:131.136 - 0.452ms returns 1 (0x1)
T7004 17543:131.136 JLINK_HasError()
T7004 17543:131.136 JLINK_ReadReg(R0)
T7004 17543:131.136 - 0.005ms returns 0x2000045C
T7004 17543:131.136 JLINK_ReadReg(R1)
T7004 17543:131.136 - 0.004ms returns 0x00000000
T7004 17543:131.136 JLINK_ReadReg(R2)
T7004 17543:131.136 - 0.004ms returns 0x00001000
T7004 17543:131.136 JLINK_ReadReg(R3)
T7004 17543:131.136 - 0.003ms returns 0x40010C00
T7004 17543:131.136 JLINK_ReadReg(R4)
T7004 17543:131.136 - 0.004ms returns 0x08005924
T7004 17543:131.136 JLINK_ReadReg(R5)
T7004 17543:131.136 - 0.004ms returns 0x08005924
T7004 17543:131.136 JLINK_ReadReg(R6)
T7004 17543:131.136 - 0.004ms returns 0x00000000
T7004 17543:131.136 JLINK_ReadReg(R7)
T7004 17543:131.136 - 0.004ms returns 0x00000000
T7004 17543:131.136 JLINK_ReadReg(R8)
T7004 17543:131.136 - 0.004ms returns 0x00000000
T7004 17543:131.136 JLINK_ReadReg(R9)
T7004 17543:131.136 - 0.003ms returns 0x20000134
T7004 17543:131.136 JLINK_ReadReg(R10)
T7004 17543:131.136 - 0.004ms returns 0x00000000
T7004 17543:131.136 JLINK_ReadReg(R11)
T7004 17543:131.136 - 0.004ms returns 0x00000000
T7004 17543:131.136 JLINK_ReadReg(R12)
T7004 17543:131.136 - 0.003ms returns 0x00000010
T7004 17543:131.136 JLINK_ReadReg(R13 (SP))
T7004 17543:131.136 - 0.004ms returns 0x20000438
T7004 17543:131.136 JLINK_ReadReg(R14)
T7004 17543:131.136 - 0.003ms returns 0x08003293
T7004 17543:131.136 JLINK_ReadReg(R15 (PC))
T7004 17543:131.136 - 0.004ms returns 0x080032FC
T7004 17543:131.136 JLINK_ReadReg(XPSR)
T7004 17543:131.136 - 0.008ms returns 0x81000000
T7004 17543:131.136 JLINK_ReadReg(MSP)
T7004 17543:131.136 - 0.004ms returns 0x20000438
T7004 17543:131.136 JLINK_ReadReg(PSP)
T7004 17543:131.136 - 0.003ms returns 0x20001000
T7004 17543:131.136 JLINK_ReadReg(CFBP)
T7004 17543:131.136 - 0.003ms returns 0x04000000
T7004 17543:131.136 JLINK_ReadReg(FPSCR)
T7004 17543:141.376 - 9.664ms returns 0x80000010
T7004 17543:141.376 JLINK_ReadReg(FPS0)
T7004 17543:141.376 - 0.007ms returns 0x43A5B0FF
T7004 17543:141.376 JLINK_ReadReg(FPS1)
T7004 17543:141.376 - 0.004ms returns 0x00000000
T7004 17543:141.376 JLINK_ReadReg(FPS2)
T7004 17543:141.376 - 0.004ms returns 0x43E10000
T7004 17543:141.376 JLINK_ReadReg(FPS3)
T7004 17543:141.376 - 0.003ms returns 0x4020AAAA
T7004 17543:141.376 JLINK_ReadReg(FPS4)
T7004 17543:141.376 - 0.003ms returns 0x432F0F5C
T7004 17543:141.376 JLINK_ReadReg(FPS5)
T7004 17543:141.376 - 0.003ms returns 0x40A52700
T7004 17543:141.376 JLINK_ReadReg(FPS6)
T7004 17543:141.376 - 0.003ms returns 0x00000000
T7004 17543:141.376 JLINK_ReadReg(FPS7)
T7004 17543:141.376 - 0.003ms returns 0x20181CA9
T7004 17543:141.376 JLINK_ReadReg(FPS8)
T7004 17543:141.376 - 0.004ms returns 0x00000000
T7004 17543:141.376 JLINK_ReadReg(FPS9)
T7004 17543:141.376 - 0.003ms returns 0xA0008018
T7004 17543:141.376 JLINK_ReadReg(FPS10)
T7004 17543:141.376 - 0.003ms returns 0x49384849
T7004 17543:141.376 JLINK_ReadReg(FPS11)
T7004 17543:141.376 - 0.003ms returns 0x85258506
T7004 17543:141.376 JLINK_ReadReg(FPS12)
T7004 17543:141.376 - 0.004ms returns 0x154CB400
T7004 17543:141.376 JLINK_ReadReg(FPS13)
T7004 17543:141.376 - 0.003ms returns 0x81F50428
T7004 17543:141.376 JLINK_ReadReg(FPS14)
T7004 17543:141.376 - 0.003ms returns 0x8D012A9A
T7004 17543:141.376 JLINK_ReadReg(FPS15)
